#Digilent WaveForms Network Analyzer - Bode
#Device Name: Discovery2
#Serial Number: SN:210321B3CBB6
#Date Time: 2026-07-17 00:07:11.766
#Start: 500 Hz
#Stop: 100000 Hz
#Steps: 100
#Wavegen: Wavegen C1
#Amplification: 1 X
#Settle: 10 ms
#MinPeriods: 16 
#Channel: Channel 1
#Range: 5.49996 V
#Offset: -5.00031 V
#Relative: no
#Channel: Channel 2
#Range: 5.53101 V
#Offset: -4.99998 V
#Relative: yes

Frequency (Hz),Channel 1 Magnitude (dB),Channel 2 Magnitude (dB),Channel 2 Phase (deg)
500.0000000000005,-19.68943419381427,7.356553119109039,131.0627879988458
527.4881790208877,-19.25005778781441,7.292762325977137,133.497494145902
556.4875580135443,-18.64643221415896,7.082520906854524,134.3128826199825
587.0812172486903,-18.09080968924721,6.90617166961101,135.8920195689208
619.3568044477557,-17.66869130150667,6.919641746088331,137.1506335780063
653.406785884685,-17.2045000787892,6.860227307961858,138.5812668173112
689.3287112924065,-16.61225718060809,6.566232705295436,141.1083909962288
727.2254933328937,-16.1444692571194,6.502716155947141,142.6229055998797
767.2057024314698,-15.73159132515365,6.580266828929922,143.0578148026055
809.3838778200335,-15.29086859057058,6.574967270636415,143.9268533759031
853.8808556803085,-14.91897439878905,6.689243008986397,144.5772375079128
900.8241153272068,-14.5911033683413,6.821608772293183,145.8401794099792
950.3481444241002,-14.45036562623068,7.29904600006131,145.8112315329015
1002.594824276296,-13.96733714582161,7.292171524694865,145.7297824998056
1057.713836306541,-13.53059825806917,7.335915230434029,145.8707694803959
1115.863090877068,-13.33737963185753,7.772792605853921,145.0964629803254
1177.209179686728,-12.95522176824727,8.022689268060926,143.0695725389396
1241.92785303925,-12.74362073848454,8.507386037243199,141.0036717086494
1310.20452334999,-12.32041010029008,8.750542249946173,138.5949744863989
1382.234796333631,-11.90772211371097,9.060577167553035,135.3088613724897
1458.225031394669,-11.23395241890304,9.214927103847518,129.8505520911032
1538.392932826102,-10.47328666356154,9.359263925531714,123.773765604816
1622.968173510086,-9.498386347532646,9.371617916172996,117.1235520284209
1712.193052907382,-8.119542665125248,9.014046697004677,110.6055255124645
1806.323191220659,-6.422915890649151,8.484632375105921,103.8427204660754
1905.628261720369,-4.434297171999305,7.808923385303417,97.32736401390591
2010.392763331233,-2.35255461051013,7.047986881952527,92.32798525873766
2120.916835692723,0.007987127491228476,6.119477666863405,87.59695317157443
2237.517119028597,1.867262759762034,4.823394088875287,86.01553201870763
2360.527661288914,2.98820741966213,3.581817065788957,84.41805748698559
2490.300875163447,3.446778543042765,2.682026872552334,82.82223242376455
2627.20854770818,3.602101644369715,1.944416978995158,80.90692021544325
2771.642905477397,3.502361545996359,1.310108809320739,79.17558938627148
2924.017738212867,3.311406725005392,0.7100546973830835,76.94752835512804
3084.76958430936,2.883377681147688,0.01146530673533178,75.77432015170966
3254.358981452731,2.366449671881085,-0.7911803879079561,75.50491492032052
3433.271786013541,1.914004927110325,-1.566820956754482,75.50446677408181
3622.020564976146,1.573233241680958,-2.233010759103145,75.49999423770583
3821.14606439095,1.267217742701039,-2.930130505882753,75.52249818657126
4031.218758556826,1.032889841988624,-3.529255985061647,75.62801754234704
4252.840484371965,0.7988638179539874,-4.231358776824806,75.88649003361532
4486.646165535356,0.6190279177244039,-4.845947763505608,76.03737241943951
4733.305631538587,0.4672061225081237,-5.423081223918422,76.61498218534388
4993.525536659204,0.3417733659501072,-5.960031718494801,76.6099858110144
5268.051384453324,0.2173215591869442,-6.588762709816622,76.91396494259993
5557.669663547502,0.1196391436718594,-7.166527821903719,77.05365176108336
5863.210100848602,0.03676525874024229,-7.676272407129464,77.06663250677899
6185.548038627006,-0.03352210920872974,-8.208407646499971,77.25351080376296
6525.606942283164,-0.09631912724502036,-8.7414832126349,77.71727409640346
6884.361045982021,-0.1527744162960784,-9.246538072210573,77.75194255288247
7262.838143734777,-0.1984163127150856,-9.756828544060564,77.81436405118512
7662.122533924203,-0.2450148115539532,-10.2645477019948,77.93943758140185
8083.358125709173,-0.2866898068454433,-10.73561008303424,77.90259769267193
8527.751716208051,-0.3115618434106001,-11.2401265030989,77.85828704176777
8996.576447849668,-0.3439707992591827,-11.67382815781496,77.62586317805204
9491.175455796858,-0.3676626613532625,-12.14518394497357,77.64341716059059
10012.96571589205,-0.3993359221246606,-12.58571377493001,77.74430308433084
10563.44210414895,-0.4109390989848209,-13.03766786207605,77.37473555386291
11144.18167942021,-0.4370137314923917,-13.49284153944937,77.32172700171482
11756.8482015106,-0.4451129585505691,-13.92582576030066,76.54995572290932
12403.19689767966,-0.4605011752159435,-14.32627390464443,76.50990824480111
13085.07949118912,-0.4674948424367092,-14.73494565943615,76.08973619035881
13804.44950630183,-0.4812922580621439,-15.15499000698357,75.52768718553079
14563.36786492988,-0.4942395238217878,-15.42798157208479,75.44678379617568
15364.00879096636,-0.5121532409416167,-15.93744403877156,74.09053602509107
16208.6660392155,-0.513281463955957,-16.30278140256515,73.41920876838711
17099.75946676697,-0.5187555916866178,-16.6584894363321,72.5175449842172
18039.8419656402,-0.5308841524651847,-17.1563052043547,72.10749668197749
19031.60677656027,-0.5462335520995837,-17.52036199383971,70.83909203061894
20077.89520481873,-0.5613081414877742,-17.75337675448399,69.71076057191873
21181.70476032408,-0.5507325827688501,-18.13883204505627,68.9078269313401
22346.19774516282,-0.57363777054134,-18.43796819949318,67.73728932917531
23574.71031327321,-0.5754860333497268,-18.82688404163779,62.93110430258787
24870.76202818685,-0.5738588498202611,-19.63397921669233,70.86993518822278
26238.06594622023,-0.5807660069525802,-19.49069437652753,62.4624988037599
27680.53925400335,-0.5762024597248606,-19.89292833337928,60.73258182744453
29202.31449082084,-0.5864243346320812,-20.23679097933786,59.54245847842777
30807.75138791674,-0.5923593457505869,-20.75659123595671,56.52267656697192
32501.44935868083,-0.601844019724958,-21.00862454428468,55.47700618497034
34288.26067550031,-0.6032159967227368,-21.21220077097771,52.86264213856145
36173.30437102633,-0.6078263278547655,-21.82650096988699,49.87459755534552
38161.98090368199,-0.614747244191149,-22.28176515595333,49.63016063389956
40259.9876294262,-0.6216241638551044,-22.50655478449822,45.31251695427505
42473.33512409896,-0.6283708047236678,-22.78942005323787,41.93721277323192
44808.36440310974,-0.6218187900703653,-23.2221021906828,40.16132618797901
47271.76508780142,-0.6082940427063757,-23.89379971109516,37.73635952804854
49870.59457053511,-0.6339741617146054,-24.09193872607221,35.98612943875226
52612.29823340104,-0.595915045869693,-25.01578754869685,32.42016407154323
55504.73077848113,-0.6282360334843824,-24.86426810046849,29.51300474272819
58556.17873077128,-0.6146103142406294,-25.60061001921662,29.52293787340051
61775.38417823233,-0.6013205775210683,-25.86154564772475,21.32699311194835
65171.56981698306,-0.6653458288628656,-19.71368099862984,94.13033527028948
68754.46537338606,-0.6090259200201654,-19.85386416335652,170.2415040452788
72534.33547872418,-0.6029242280734727,-17.21464871466971,16.35604559283097
76522.00907632476,-0.6608248267589769,-20.43734331345139,136.9305403804082
80728.91044538074,-0.6179539053660165,-26.39561426604403,100.6720374285504
85167.09193034843,-0.5844387358959178,-29.79492624619535,14.68701673566326
89849.26846968802,-0.5590085775943048,-29.84482628183362,-9.771583452068619
94788.8540228692,-0.5430163959422186,-30.37113694893412,-15.61721982666177
100000,-0.5488989246350653,-32.92238640900347,-13.06481597417007
